Freq.	V(n001)/I(C)
1.00000000000000e+001	4.70000000000000e+002,-2.34051386899846e+004
1.02329299228075e+001	4.70000000000000e+002,-2.28723726894859e+004
1.04712854805090e+001	4.70000000000000e+002,-2.23517339237388e+004
1.07151930523761e+001	4.70000000000000e+002,-2.18429463431782e+004
1.09647819614319e+001	4.70000000000000e+002,-2.13457401818943e+004
1.12201845430196e+001	4.70000000000000e+002,-2.08598518145992e+004
1.14815362149688e+001	4.70000000000000e+002,-2.03850236168490e+004
1.17489755493953e+001	4.70000000000000e+002,-1.99210038284480e+004
1.20226443461741e+001	4.70000000000000e+002,-1.94675464199626e+004
1.23026877081238e+001	4.70000000000000e+002,-1.90244109622725e+004
1.25892541179417e+001	4.70000000000000e+002,-1.85913624990925e+004
1.28824955169313e+001	4.70000000000000e+002,-1.81681714223952e+004
1.31825673855641e+001	4.70000000000000e+002,-1.77546133506703e+004
1.34896288259165e+001	4.70000000000000e+002,-1.73504690099539e+004
1.38038426460288e+001	4.70000000000000e+002,-1.69555241175673e+004
1.41253754462275e+001	4.70000000000000e+002,-1.65695692685007e+004
1.44543977074593e+001	4.70000000000000e+002,-1.61923998243844e+004
1.47910838816821e+001	4.70000000000000e+002,-1.58238158049868e+004
1.51356124843621e+001	4.70000000000000e+002,-1.54636217821819e+004
1.54881661891248e+001	4.70000000000000e+002,-1.51116267763312e+004
1.58489319246111e+001	4.70000000000000e+002,-1.47676441550233e+004
1.62181009735893e+001	4.70000000000000e+002,-1.44314915341193e+004
1.65958690743756e+001	4.70000000000000e+002,-1.41029906810501e+004
1.69824365246174e+001	4.70000000000000e+002,-1.37819674203151e+004
1.73780082874937e+001	4.70000000000000e+002,-1.34682515411322e+004
1.77827941003892e+001	4.70000000000000e+002,-1.31616767071899e+004
1.81970085860998e+001	4.70000000000000e+002,-1.28620803684530e+004
1.86208713666287e+001	4.70000000000000e+002,-1.25693036749773e+004
1.90546071796325e+001	4.70000000000000e+002,-1.22831913926845e+004
1.94984459975804e+001	4.70000000000000e+002,-1.20035918210554e+004
1.99526231496888e+001	4.70000000000000e+002,-1.17303567126960e+004
2.04173794466953e+001	4.70000000000000e+002,-1.14633411947354e+004
2.08929613085404e+001	4.70000000000000e+002,-1.12024036920115e+004
2.13796208950223e+001	4.70000000000000e+002,-1.09474058520064e+004
2.18776162394955e+001	4.70000000000000e+002,-1.06982124714901e+004
2.23872113856834e+001	4.70000000000000e+002,-1.04546914248338e+004
2.29086765276777e+001	4.70000000000000e+002,-1.02167135939551e+004
2.34422881531992e+001	4.70000000000000e+002,-9.98415279985818e+003
2.39883291901949e+001	4.70000000000000e+002,-9.75688573573159e+003
2.45470891568503e+001	4.70000000000000e+002,-9.53479190156973e+003
2.51188643150958e+001	4.70000000000000e+002,-9.31775354028197e+003
2.57039578276886e+001	4.70000000000000e+002,-9.10565557525632e+003
2.63026799189538e+001	4.70000000000000e+002,-8.89838554934427e+003
2.69153480392691e+001	4.70000000000000e+002,-8.69583356523454e+003
2.75422870333816e+001	4.70000000000000e+002,-8.49789222718406e+003
2.81838293126445e+001	4.70000000000000e+002,-8.30445658407533e+003
2.88403150312660e+001	4.70000000000000e+002,-8.11542407376996e+003
2.95120922666638e+001	4.70000000000000e+002,-7.93069446872884e+003
3.01995172040201e+001	4.70000000000000e+002,-7.75016982287019e+003
3.09029543251359e+001	4.70000000000000e+002,-7.57375441963725e+003
3.16227766016838e+001	4.70000000000000e+002,-7.40135472124810e+003
3.23593656929628e+001	4.70000000000000e+002,-7.23287931910066e+003
3.31131121482591e+001	4.70000000000000e+002,-7.06823888530669e+003
3.38844156139202e+001	4.70000000000000e+002,-6.90734612532891e+003
3.46736850452531e+001	4.70000000000000e+002,-6.75011573169631e+003
3.54813389233575e+001	4.70000000000000e+002,-6.59646433877300e+003
3.63078054770101e+001	4.70000000000000e+002,-6.44631047855663e+003
3.71535229097172e+001	4.70000000000000e+002,-6.29957453748301e+003
3.80189396320561e+001	4.70000000000000e+002,-6.15617871421388e+003
3.89045144994280e+001	4.70000000000000e+002,-6.01604697838569e+003
3.98107170553497e+001	4.70000000000000e+002,-5.87910503029723e+003
4.07380277804112e+001	4.70000000000000e+002,-5.74528026151499e+003
4.16869383470335e+001	4.70000000000000e+002,-5.61450171637519e+003
4.26579518801592e+001	4.70000000000000e+002,-5.48670005436212e+003
4.36515832240165e+001	4.70000000000000e+002,-5.36180751334293e+003
4.46683592150962e+001	4.70000000000000e+002,-5.23975787363923e+003
4.57088189614874e+001	4.70000000000000e+002,-5.12048642291653e+003
4.67735141287197e+001	4.70000000000000e+002,-5.00392992187291e+003
4.78630092322638e+001	4.70000000000000e+002,-4.89002657070871e+003
4.89778819368445e+001	4.70000000000000e+002,-4.77871597635945e+003
5.01187233627271e+001	4.70000000000000e+002,-4.66993912047465e+003
5.12861383991364e+001	4.70000000000000e+002,-4.56363832812546e+003
5.24807460249772e+001	4.70000000000000e+002,-4.45975723722475e+003
5.37031796370252e+001	4.70000000000000e+002,-4.35824076864308e+003
5.49540873857624e+001	4.70000000000000e+002,-4.25903509700508e+003
5.62341325190348e+001	4.70000000000000e+002,-4.16208762215051e+003
5.75439937337156e+001	4.70000000000000e+002,-4.06734694124494e+003
5.88843655355588e+001	4.70000000000000e+002,-3.97476282152532e+003
6.02559586074357e+001	4.70000000000000e+002,-3.88428617366588e+003
6.16595001861481e+001	4.70000000000000e+002,-3.79586902575033e+003
6.30957344480192e+001	4.70000000000000e+002,-3.70946449783649e+003
6.45654229034654e+001	4.70000000000000e+002,-3.62502677709997e+003
6.60693448007595e+001	4.70000000000000e+002,-3.54251109354358e+003
6.76082975391980e+001	4.70000000000000e+002,-3.46187369625966e+003
6.91830970918935e+001	4.70000000000000e+002,-3.38307183023281e+003
7.07945784384136e+001	4.70000000000000e+002,-3.30606371367060e+003
7.24435960074988e+001	4.70000000000000e+002,-3.23080851585030e+003
7.41310241300916e+001	4.70000000000000e+002,-3.15726633546992e+003
7.58577575029182e+001	4.70000000000000e+002,-3.08539817949196e+003
7.76247116628690e+001	4.70000000000000e+002,-3.01516594246884e+003
7.94328234724279e+001	4.70000000000000e+002,-2.94653238633885e+003
8.12830516164097e+001	4.70000000000000e+002,-2.87946112068208e+003
8.31763771102669e+001	4.70000000000000e+002,-2.81391658342566e+003
8.51138038202374e+001	4.70000000000000e+002,-2.74986402198836e+003
8.70963589956078e+001	4.70000000000000e+002,-2.68726947485427e+003
8.91250938133743e+001	4.70000000000000e+002,-2.62609975356597e+003
9.12010839355907e+001	4.70000000000000e+002,-2.56632242512755e+003
9.33254300796988e+001	4.70000000000000e+002,-2.50790579480822e+003
9.54992586021433e+001	4.70000000000000e+002,-2.45081888933736e+003
9.77237220955808e+001	4.70000000000000e+002,-2.39503144048205e+003
9.99999999999997e+001	4.70000000000000e+002,-2.34051386899847e+003
1.02329299228075e+002	4.70000000000000e+002,-2.28723726894860e+003
1.04712854805090e+002	4.70000000000000e+002,-2.23517339237388e+003
1.07151930523760e+002	4.70000000000000e+002,-2.18429463431783e+003
1.09647819614318e+002	4.70000000000000e+002,-2.13457401818944e+003
1.12201845430196e+002	4.70000000000000e+002,-2.08598518145993e+003
1.14815362149688e+002	4.70000000000000e+002,-2.03850236168490e+003
1.17489755493953e+002	4.70000000000000e+002,-1.99210038284481e+003
1.20226443461741e+002	4.70000000000000e+002,-1.94675464199627e+003
1.23026877081238e+002	4.70000000000000e+002,-1.90244109622726e+003
1.25892541179416e+002	4.70000000000000e+002,-1.85913624990925e+003
1.28824955169313e+002	4.70000000000000e+002,-1.81681714223952e+003
1.31825673855640e+002	4.70000000000000e+002,-1.77546133506703e+003
1.34896288259165e+002	4.70000000000000e+002,-1.73504690099540e+003
1.38038426460288e+002	4.70000000000000e+002,-1.69555241175673e+003
1.41253754462275e+002	4.70000000000000e+002,-1.65695692685007e+003
1.44543977074592e+002	4.70000000000000e+002,-1.61923998243845e+003
1.47910838816820e+002	4.70000000000000e+002,-1.58238158049868e+003
1.51356124843620e+002	4.70000000000000e+002,-1.54636217821820e+003
1.54881661891248e+002	4.70000000000000e+002,-1.51116267763313e+003
1.58489319246111e+002	4.70000000000000e+002,-1.47676441550234e+003
1.62181009735892e+002	4.70000000000000e+002,-1.44314915341194e+003
1.65958690743755e+002	4.70000000000000e+002,-1.41029906810501e+003
1.69824365246174e+002	4.70000000000000e+002,-1.37819674203151e+003
1.73780082874937e+002	4.70000000000000e+002,-1.34682515411323e+003
1.77827941003892e+002	4.70000000000000e+002,-1.31616767071899e+003
1.81970085860998e+002	4.70000000000000e+002,-1.28620803684531e+003
1.86208713666286e+002	4.70000000000000e+002,-1.25693036749774e+003
1.90546071796324e+002	4.70000000000000e+002,-1.22831913926846e+003
1.94984459975804e+002	4.70000000000000e+002,-1.20035918210554e+003
1.99526231496887e+002	4.70000000000000e+002,-1.17303567126961e+003
2.04173794466952e+002	4.70000000000000e+002,-1.14633411947354e+003
2.08929613085403e+002	4.70000000000000e+002,-1.12024036920115e+003
2.13796208950222e+002	4.70000000000000e+002,-1.09474058520065e+003
2.18776162394954e+002	4.70000000000000e+002,-1.06982124714902e+003
2.23872113856833e+002	4.70000000000000e+002,-1.04546914248339e+003
2.29086765276776e+002	4.70000000000000e+002,-1.02167135939552e+003
2.34422881531991e+002	4.70000000000000e+002,-9.98415279985821e+002
2.39883291901948e+002	4.70000000000000e+002,-9.75688573573161e+002
2.45470891568502e+002	4.70000000000000e+002,-9.53479190156975e+002
2.51188643150957e+002	4.70000000000000e+002,-9.31775354028199e+002
2.57039578276885e+002	4.70000000000000e+002,-9.10565557525634e+002
2.63026799189537e+002	4.70000000000000e+002,-8.89838554934429e+002
2.69153480392690e+002	4.70000000000000e+002,-8.69583356523456e+002
2.75422870333816e+002	4.70000000000000e+002,-8.49789222718408e+002
2.81838293126444e+002	4.70000000000000e+002,-8.30445658407536e+002
2.88403150312659e+002	4.70000000000000e+002,-8.11542407376999e+002
2.95120922666637e+002	4.70000000000000e+002,-7.93069446872887e+002
3.01995172040200e+002	4.70000000000000e+002,-7.75016982287022e+002
3.09029543251358e+002	4.70000000000000e+002,-7.57375441963728e+002
3.16227766016837e+002	4.70000000000000e+002,-7.40135472124812e+002
3.23593656929627e+002	4.70000000000000e+002,-7.23287931910069e+002
3.31131121482590e+002	4.70000000000000e+002,-7.06823888530671e+002
3.38844156139201e+002	4.70000000000000e+002,-6.90734612532893e+002
3.46736850452530e+002	4.70000000000000e+002,-6.75011573169633e+002
3.54813389233574e+002	4.70000000000000e+002,-6.59646433877302e+002
3.63078054770100e+002	4.70000000000000e+002,-6.44631047855665e+002
3.71535229097171e+002	4.70000000000000e+002,-6.29957453748303e+002
3.80189396320559e+002	4.70000000000000e+002,-6.15617871421390e+002
3.89045144994279e+002	4.70000000000000e+002,-6.01604697838571e+002
3.98107170553495e+002	4.70000000000000e+002,-5.87910503029725e+002
4.07380277804111e+002	4.70000000000000e+002,-5.74528026151501e+002
4.16869383470333e+002	4.70000000000000e+002,-5.61450171637521e+002
4.26579518801591e+002	4.70000000000000e+002,-5.48670005436214e+002
4.36515832240164e+002	4.70000000000000e+002,-5.36180751334295e+002
4.46683592150961e+002	4.70000000000000e+002,-5.23975787363925e+002
4.57088189614873e+002	4.70000000000000e+002,-5.12048642291655e+002
4.67735141287196e+002	4.70000000000000e+002,-5.00392992187293e+002
4.78630092322636e+002	4.70000000000000e+002,-4.89002657070872e+002
4.89778819368444e+002	4.70000000000000e+002,-4.77871597635947e+002
5.01187233627270e+002	4.70000000000000e+002,-4.66993912047466e+002
5.12861383991362e+002	4.70000000000000e+002,-4.56363832812548e+002
5.24807460249770e+002	4.70000000000000e+002,-4.45975723722477e+002
5.37031796370250e+002	4.70000000000000e+002,-4.35824076864309e+002
5.49540873857622e+002	4.70000000000000e+002,-4.25903509700510e+002
5.62341325190346e+002	4.70000000000000e+002,-4.16208762215052e+002
5.75439937337154e+002	4.70000000000000e+002,-4.06734694124495e+002
5.88843655355586e+002	4.70000000000000e+002,-3.97476282152533e+002
6.02559586074355e+002	4.70000000000000e+002,-3.88428617366590e+002
6.16595001861479e+002	4.70000000000000e+002,-3.79586902575034e+002
6.30957344480190e+002	4.70000000000000e+002,-3.70946449783650e+002
6.45654229034652e+002	4.70000000000000e+002,-3.62502677709999e+002
6.60693448007592e+002	4.70000000000000e+002,-3.54251109354359e+002
6.76082975391978e+002	4.70000000000000e+002,-3.46187369625967e+002
6.91830970918933e+002	4.70000000000000e+002,-3.38307183023282e+002
7.07945784384134e+002	4.70000000000000e+002,-3.30606371367061e+002
7.24435960074986e+002	4.70000000000000e+002,-3.23080851585031e+002
7.41310241300914e+002	4.70000000000000e+002,-3.15726633546992e+002
7.58577575029180e+002	4.70000000000000e+002,-3.08539817949197e+002
7.76247116628688e+002	4.70000000000000e+002,-3.01516594246885e+002
7.94328234724277e+002	4.70000000000000e+002,-2.94653238633886e+002
8.12830516164095e+002	4.70000000000000e+002,-2.87946112068208e+002
8.31763771102666e+002	4.70000000000000e+002,-2.81391658342566e+002
8.51138038202372e+002	4.70000000000000e+002,-2.74986402198837e+002
8.70963589956076e+002	4.70000000000000e+002,-2.68726947485428e+002
8.91250938133741e+002	4.70000000000000e+002,-2.62609975356598e+002
9.12010839355905e+002	4.70000000000000e+002,-2.56632242512755e+002
9.33254300796986e+002	4.70000000000000e+002,-2.50790579480823e+002
9.54992586021431e+002	4.70000000000000e+002,-2.45081888933737e+002
9.77237220955805e+002	4.70000000000000e+002,-2.39503144048205e+002
9.99999999999994e+002	4.70000000000000e+002,-2.34051386899847e+002
1.02329299228075e+003	4.70000000000000e+002,-2.28723726894860e+002
1.04712854805089e+003	4.70000000000000e+002,-2.23517339237389e+002
1.07151930523760e+003	4.70000000000000e+002,-2.18429463431783e+002
1.09647819614318e+003	4.70000000000000e+002,-2.13457401818945e+002
1.12201845430196e+003	4.70000000000000e+002,-2.08598518145993e+002
1.14815362149688e+003	4.70000000000000e+002,-2.03850236168491e+002
1.17489755493952e+003	4.70000000000000e+002,-1.99210038284482e+002
1.20226443461741e+003	4.70000000000000e+002,-1.94675464199628e+002
1.23026877081237e+003	4.70000000000000e+002,-1.90244109622726e+002
1.25892541179416e+003	4.70000000000000e+002,-1.85913624990926e+002
1.28824955169313e+003	4.70000000000000e+002,-1.81681714223953e+002
1.31825673855640e+003	4.70000000000000e+002,-1.77546133506704e+002
1.34896288259165e+003	4.70000000000000e+002,-1.73504690099540e+002
1.38038426460288e+003	4.70000000000000e+002,-1.69555241175674e+002
1.41253754462275e+003	4.70000000000000e+002,-1.65695692685008e+002
1.44543977074592e+003	4.70000000000000e+002,-1.61923998243845e+002
1.47910838816820e+003	4.70000000000000e+002,-1.58238158049869e+002
1.51356124843620e+003	4.70000000000000e+002,-1.54636217821820e+002
1.54881661891247e+003	4.70000000000000e+002,-1.51116267763313e+002
1.58489319246110e+003	4.70000000000000e+002,-1.47676441550234e+002
1.62181009735892e+003	4.70000000000000e+002,-1.44314915341194e+002
1.65958690743755e+003	4.70000000000000e+002,-1.41029906810501e+002
1.69824365246173e+003	4.70000000000000e+002,-1.37819674203151e+002
1.73780082874936e+003	4.70000000000000e+002,-1.34682515411323e+002
1.77827941003891e+003	4.70000000000000e+002,-1.31616767071899e+002
1.81970085860997e+003	4.70000000000000e+002,-1.28620803684531e+002
1.86208713666286e+003	4.70000000000000e+002,-1.25693036749775e+002
1.90546071796323e+003	4.70000000000000e+002,-1.22831913926846e+002
1.94984459975803e+003	4.70000000000000e+002,-1.20035918210554e+002
1.99526231496887e+003	4.70000000000000e+002,-1.17303567126961e+002
2.04173794466952e+003	4.70000000000000e+002,-1.14633411947355e+002
2.08929613085403e+003	4.70000000000000e+002,-1.12024036920116e+002
2.13796208950222e+003	4.70000000000000e+002,-1.09474058520065e+002
2.18776162394954e+003	4.70000000000000e+002,-1.06982124714902e+002
2.23872113856832e+003	4.70000000000000e+002,-1.04546914248339e+002
2.29086765276776e+003	4.70000000000000e+002,-1.02167135939552e+002
2.34422881531991e+003	4.70000000000000e+002,-9.98415279985823e+001
2.39883291901947e+003	4.70000000000000e+002,-9.75688573573164e+001
2.45470891568501e+003	4.70000000000000e+002,-9.53479190156979e+001
2.51188643150956e+003	4.70000000000000e+002,-9.31775354028203e+001
2.57039578276885e+003	4.70000000000000e+002,-9.10565557525639e+001
2.63026799189536e+003	4.70000000000000e+002,-8.89838554934431e+001
2.69153480392690e+003	4.70000000000000e+002,-8.69583356523461e+001
2.75422870333815e+003	4.70000000000000e+002,-8.49789222718409e+001
2.81838293126443e+003	4.70000000000000e+002,-8.30445658407539e+001
2.88403150312659e+003	4.70000000000000e+002,-8.11542407377002e+001
2.95120922666636e+003	4.70000000000000e+002,-7.93069446872893e+001
3.01995172040199e+003	4.70000000000000e+002,-7.75016982287026e+001
3.09029543251357e+003	4.70000000000000e+002,-7.57375441963728e+001
3.16227766016836e+003	4.70000000000000e+002,-7.40135472124818e+001
3.23593656929626e+003	4.70000000000000e+002,-7.23287931910067e+001
3.31131121482589e+003	4.70000000000000e+002,-7.06823888530672e+001
3.38844156139200e+003	4.70000000000000e+002,-6.90734612532896e+001
3.46736850452529e+003	4.70000000000000e+002,-6.75011573169632e+001
3.54813389233573e+003	4.70000000000000e+002,-6.59646433877305e+001
3.63078054770099e+003	4.70000000000000e+002,-6.44631047855664e+001
3.71535229097170e+003	4.70000000000000e+002,-6.29957453748313e+001
3.80189396320558e+003	4.70000000000000e+002,-6.15617871421394e+001
3.89045144994278e+003	4.70000000000000e+002,-6.01604697838567e+001
3.98107170553494e+003	4.70000000000000e+002,-5.87910503029726e+001
4.07380277804110e+003	4.70000000000000e+002,-5.74528026151507e+001
4.16869383470332e+003	4.70000000000000e+002,-5.61450171637525e+001
4.26579518801589e+003	4.70000000000000e+002,-5.48670005436216e+001
4.36515832240162e+003	4.70000000000000e+002,-5.36180751334292e+001
4.46683592150960e+003	4.70000000000000e+002,-5.23975787363924e+001
4.57088189614871e+003	4.70000000000000e+002,-5.12048642291657e+001
4.67735141287194e+003	4.70000000000000e+002,-5.00392992187294e+001
4.78630092322634e+003	4.70000000000000e+002,-4.89002657070871e+001
4.89778819368442e+003	4.70000000000000e+002,-4.77871597635947e+001
5.01187233627268e+003	4.70000000000000e+002,-4.66993912047467e+001
5.12861383991361e+003	4.70000000000000e+002,-4.56363832812547e+001
5.24807460249768e+003	4.70000000000000e+002,-4.45975723722484e+001
5.37031796370248e+003	4.70000000000000e+002,-4.35824076864315e+001
5.49540873857620e+003	4.70000000000000e+002,-4.25903509700506e+001
5.62341325190344e+003	4.70000000000000e+002,-4.16208762215063e+001
5.75439937337152e+003	4.70000000000000e+002,-4.06734694124502e+001
5.88843655355584e+003	4.70000000000000e+002,-3.97476282152541e+001
6.02559586074353e+003	4.70000000000000e+002,-3.88428617366594e+001
6.16595001861477e+003	4.70000000000000e+002,-3.79586902575037e+001
6.30957344480188e+003	4.70000000000000e+002,-3.70946449783651e+001
6.45654229034650e+003	4.70000000000000e+002,-3.62502677710008e+001
6.60693448007590e+003	4.70000000000000e+002,-3.54251109354361e+001
6.76082975391976e+003	4.70000000000000e+002,-3.46187369625966e+001
6.91830970918931e+003	4.70000000000000e+002,-3.38307183023282e+001
7.07945784384132e+003	4.70000000000000e+002,-3.30606371367067e+001
7.24435960074984e+003	4.70000000000000e+002,-3.23080851585021e+001
7.41310241300911e+003	4.70000000000000e+002,-3.15726633546989e+001
7.58577575029177e+003	4.70000000000000e+002,-3.08539817949191e+001
7.76247116628685e+003	4.70000000000000e+002,-3.01516594246891e+001
7.94328234724275e+003	4.70000000000000e+002,-2.94653238633887e+001
8.12830516164092e+003	4.70000000000000e+002,-2.87946112068199e+001
8.31763771102664e+003	4.70000000000000e+002,-2.81391658342569e+001
8.51138038202369e+003	4.70000000000000e+002,-2.74986402198842e+001
8.70963589956073e+003	4.70000000000000e+002,-2.68726947485421e+001
8.91250938133738e+003	4.70000000000000e+002,-2.62609975356597e+001
9.12010839355902e+003	4.70000000000000e+002,-2.56632242512762e+001
9.33254300796983e+003	4.70000000000000e+002,-2.50790579480837e+001
