Freq.	I(C)/V(n001)
1.00000000000000e+001	8.57630715400407e-007,4.27084379547601e-005
1.02329299228075e+001	8.98032545965936e-007,4.37024150608952e-005
1.04712854805090e+001	9.40336810971844e-007,4.47194855266802e-005
1.07151930523761e+001	9.84633010775489e-007,4.57601830257255e-005
1.09647819614319e+001	1.03101484846912e-006,4.68250533597808e-005
1.12201845430196e+001	1.07958042647618e-006,4.79146547196486e-005
1.14815362149688e+001	1.13043245227116e-006,4.90295579506386e-005
1.17489755493953e+001	1.18367845363947e-006,5.01703468225603e-005
1.20226443461741e+001	1.23943100391180e-006,5.13376183042424e-005
1.23026877081238e+001	1.29780795762699e-006,5.25319828425603e-005
1.25892541179417e+001	1.35893269709663e-006,5.37540646459424e-005
1.28824955169313e+001	1.42293439036589e-006,5.50045019723169e-005
1.31825673855641e+001	1.48994826108577e-006,5.62839474214495e-005
1.34896288259165e+001	1.56011587083481e-006,5.75930682316098e-005
1.38038426460288e+001	1.63358541445110e-006,5.89325465804930e-005
1.41253754462275e+001	1.71051202895930e-006,6.03030798903080e-005
1.44543977074593e+001	1.79105811670249e-006,6.17053811369270e-005
1.47910838816821e+001	1.87539368331423e-006,6.31401791629788e-005
1.51356124843621e+001	1.96369669119301e-006,6.46082189947463e-005
1.54881661891248e+001	2.05615342916889e-006,6.61102621627104e-005
1.58489319246111e+001	2.15295889908075e-006,6.76470870255645e-005
1.62181009735893e+001	2.25431722001208e-006,6.92194890974972e-005
1.65958690743756e+001	2.36044205096400e-006,7.08282813785191e-005
1.69824365246174e+001	2.47155703277564e-006,7.24742946875840e-005
1.73780082874937e+001	2.58789625013455e-006,7.41583779982233e-005
1.77827941003892e+001	2.70970471455355e-006,7.58813987763871e-005
1.81970085860998e+001	2.83723886922490e-006,7.76442433201478e-005
1.86208713666287e+001	2.97076711669836e-006,7.94478171008906e-005
1.90546071796325e+001	3.11057037036614e-006,8.12930451055762e-005
1.94984459975804e+001	3.25694263077534e-006,8.31808721796199e-005
1.99526231496888e+001	3.41019158782713e-006,8.51122633698882e-005
2.04173794466953e+001	3.57063924996095e-006,8.70882042672691e-005
2.08929613085404e+001	3.73862260146260e-006,8.91097013482174e-005
2.13796208950223e+001	3.91449428907592e-006,9.11777823146287e-005
2.18776162394955e+001	4.09862333913984e-006,9.32934964313327e-005
2.23872113856834e+001	4.29139590651467e-006,9.54579148604380e-005
2.29086765276777e+001	4.49321605660517e-006,9.76721309916928e-005
2.34422881531992e+001	4.70450658183099e-006,9.99372607679555e-005
2.39883291901949e+001	4.92570985393931e-006,1.02254443004794e-004
2.45470891568503e+001	5.15728871359889e-006,1.04624839703148e-004
2.51188643150958e+001	5.39972739875853e-006,1.07049636353914e-004
2.57039578276886e+001	5.65353251329764e-006,1.09530042233195e-004
2.63026799189538e+001	5.91923403754046e-006,1.12067290686887e-004
2.69153480392691e+001	6.19738638224840e-006,1.14662639403155e-004
2.75422870333816e+001	6.48856948774836e-006,1.17317370671235e-004
2.81838293126445e+001	6.79338996989574e-006,1.20032791624877e-004
2.88403150312660e+001	7.11248231461143e-006,1.22810234468640e-004
2.95120922666638e+001	7.44651012277028e-006,1.25651056685080e-004
3.01995172040201e+001	7.79616740725495e-006,1.28556641220748e-004
3.09029543251359e+001	8.16217994402248e-006,1.31528396648755e-004
3.16227766016838e+001	8.54530667906162e-006,1.34567757305501e-004
3.23593656929628e+001	8.94634119314578e-006,1.37676183398984e-004
3.31131121482591e+001	9.36611322630896e-006,1.40855161085920e-004
3.38844156139202e+001	9.80549026398964e-006,1.44106202514722e-004
3.46736850452531e+001	1.02653791867998e-005,1.47430845831160e-004
3.54813389233575e+001	1.07467279858809e-005,1.50830655143314e-004
3.63078054770101e+001	1.12505275458079e-005,1.54307220442195e-004
3.71535229097172e+001	1.17778134969897e-005,1.57862157474170e-004
3.80189396320561e+001	1.23296681394971e-005,1.61497107561049e-004
3.89045144994280e+001	1.29072224402162e-005,1.65213737363435e-004
3.98107170553497e+001	1.35116581051838e-005,1.69013738582644e-004
4.07380277804112e+001	1.41442097289047e-005,1.72898827596180e-004
4.16869383470335e+001	1.48061670223784e-005,1.76870745021449e-004
4.26579518801592e+001	1.54988771214779e-005,1.80931255202052e-004
4.36515832240165e+001	1.62237469772132e-005,1.85082145610631e-004
4.46683592150962e+001	1.69822458292869e-005,1.89325226161879e-004
4.57088189614874e+001	1.77759077642005e-005,1.93662328428947e-004
4.67735141287197e+001	1.86063343589932e-005,1.98095304756038e-004
4.78630092322638e+001	1.94751974114959e-005,2.02626027259601e-004
4.89778819368445e+001	2.03842417577481e-005,2.07256386710052e-004
5.01187233627271e+001	2.13352881769619e-005,2.11988291285521e-004
5.12861383991364e+001	2.23302363841163e-005,2.16823665188628e-004
5.24807460249772e+001	2.33710681099227e-005,2.21764447116809e-004
5.37031796370252e+001	2.44598502675207e-005,2.26812588576200e-004
5.49540873857624e+001	2.55987382048317e-005,2.31970052028559e-004
5.62341325190348e+001	2.67899790410171e-005,2.37238808860189e-004
5.75439937337156e+001	2.80359150849526e-005,2.42620837161244e-004
5.88843655355588e+001	2.93389873330333e-005,2.48118119303283e-004
6.02559586074357e+001	3.07017390429675e-005,2.53732639302333e-004
6.16595001861481e+001	3.21268193794857e-005,2.59466379954181e-004
6.30957344480192e+001	3.36169871270925e-005,2.65321319728034e-004
6.45654229034654e+001	3.51751144641045e-005,2.71299429404118e-004
6.60693448007595e+001	3.68041907912532e-005,2.77402668440232e-004
6.76082975391980e+001	3.85073266070743e-005,2.83632981051724e-004
6.91830970918935e+001	4.02877574211515e-005,2.89992291988830e-004
7.07945784384136e+001	4.21488476950291e-005,2.96482501994818e-004
7.24435960074988e+001	4.40940947992446e-005,3.03105482927893e-004
7.41310241300916e+001	4.61271329734561e-005,3.09863072529441e-004
7.58577575029182e+001	4.82517372750454e-005,3.16757068820743e-004
7.76247116628690e+001	5.04718274998564e-005,3.23789224110062e-004
7.94328234724279e+001	5.27914720568799e-005,3.30961238591701e-004
8.12830516164097e+001	5.52148917767129e-005,3.38274753518539e-004
8.31763771102669e+001	5.77464636314965e-005,3.45731343929478e-004
8.51138038202374e+001	6.03907243417750e-005,3.53332510913327e-004
8.70963589956078e+001	6.31523738433094e-005,3.61079673390874e-004
8.91250938133743e+001	6.60362785843268e-005,3.68974159397264e-004
9.12010839355907e+001	6.90474746209872e-005,3.77017196847371e-004
9.33254300796988e+001	7.21911704760089e-005,3.85209903767598e-004
9.54992586021433e+001	7.54727497224121e-005,3.93553277978550e-004
9.77237220955808e+001	7.88977732512222e-005,4.02048186214257e-004
9.99999999999997e+001	8.24719811787388e-005,4.10695352665147e-004
1.02329299228075e+002	8.62012943456143e-005,4.19495346933823e-004
1.04712854805090e+002	9.00918153565366e-005,4.28448571394875e-004
1.07151930523760e+002	9.41498291057740e-005,4.37555247952516e-004
1.09647819614318e+002	9.83818027302453e-005,4.46815404192810e-004
1.12201845430196e+002	1.02794384928155e-004,4.56228858930679e-004
1.14815362149688e+002	1.07394404577612e-004,4.65795207155759e-004
1.17489755493953e+002	1.12188868586068e-004,4.75513804385601e-004
1.20226443461741e+002	1.17184958897908e-004,4.85383750439669e-004
1.23026877081238e+002	1.22390028584177e-004,4.95403872653123e-004
1.25892541179416e+002	1.27811596935248e-004,5.05572708555553e-004
1.28824955169313e+002	1.33457343474322e-004,5.15888488046587e-004
1.31825673855640e+002	1.39335100807099e-004,5.26349115107811e-004
1.34896288259165e+002	1.45452846220773e-004,5.36952149098537e-004
1.38038426460288e+002	1.51818691943860e-004,5.47694785691839e-004
1.41253754462275e+002	1.58440873977313e-004,5.58573837516784e-004
1.44543977074592e+002	1.65327739407041e-004,5.69585714583076e-004
1.47910838816820e+002	1.72487732108417e-004,5.80726404575213e-004
1.51356124843620e+002	1.79929376754792e-004,5.91991453114858e-004
1.54881661891248e+002	1.87661261044547e-004,6.03375944102311e-004
1.58489319246111e+002	1.95692016064884e-004,6.14874480260706e-004
1.62181009735892e+002	2.04030294715656e-004,6.26481164019760e-004
1.65958690743755e+002	2.12684748123031e-004,6.38189578889489e-004
1.69824365246174e+002	2.21663999980948e-004,6.49992771488117e-004
1.73780082874937e+002	2.30976618768257e-004,6.61883234402361e-004
1.77827941003892e+002	2.40631087801199e-004,6.73852890072086e-004
1.81970085860998e+002	2.50635773094689e-004,6.85893075904950e-004
1.86208713666286e+002	2.60998889021790e-004,6.97994530839703e-004
1.90546071796324e+002	2.71728461778815e-004,7.10147383589139e-004
1.94984459975804e+002	2.82832290683885e-004,7.22341142804987e-004
1.99526231496887e+002	2.94317907359352e-004,7.34564689416901e-004
2.04173794466952e+002	3.06192532873408e-004,7.46806271405983e-004
2.08929613085403e+002	3.18463032943293e-004,7.59053501279391e-004
2.13796208950222e+002	3.31135871331779e-004,7.71293356516336e-004
2.18776162394954e+002	3.44217061599772e-004,7.83512183256677e-004
2.23872113856833e+002	3.57712117410875e-004,7.95695703500985e-004
2.29086765276776e+002	3.71626001618180e-004,8.07829026085036e-004
2.34422881531991e+002	3.85963074399146e-004,8.19896661681727e-004
2.39883291901948e+002	4.00727040740713e-004,8.31882542069150e-004
2.45470891568502e+002	4.15920897613337e-004,8.43770043884524e-004
2.51188643150957e+002	4.31546881208796e-004,8.55542017059769e-004
2.57039578276885e+002	4.47606414651851e-004,8.67180818105346e-004
2.63026799189537e+002	4.64100056629330e-004,8.78668348374531e-004
2.69153480392690e+002	4.81027451411341e-004,8.89986097400421e-004
2.75422870333816e+002	4.98387280767109e-004,9.01115191352815e-004
2.81838293126444e+002	5.16177218301716e-004,9.12036446611785e-004
2.88403150312659e+002	5.34393886758792e-004,9.22730428399535e-004
2.95120922666637e+002	5.53032818847210e-004,9.33177514352574e-004
3.01995172040200e+002	5.72088422156162e-004,9.43357962852793e-004
3.09029543251358e+002	5.91553948721922e-004,9.53251985869477e-004
3.16227766016837e+002	6.11421469800359e-004,9.62839825995608e-004
3.23593656929627e+002	6.31681856381318e-004,9.72101837291823e-004
3.31131121482590e+002	6.52324765953783e-004,9.81018569481517e-004
3.38844156139201e+002	6.73338635994024e-004,9.89570854971827e-004
3.46736850452530e+002	6.94710684602555e-004,9.97739898109198e-004
3.54813389233574e+002	7.16426918659737e-004,1.00550736601617e-003
3.63078054770100e+002	7.38472149804613e-004,1.01285548029952e-003
3.71535229097171e+002	7.60830018467535e-004,1.01976710887039e-003
3.80189396320559e+002	7.83483026105121e-004,1.02622585707580e-003
3.89045144994279e+002	8.06412575697160e-004,1.03221615730960e-003
3.98107170553495e+002	8.29599020470404e-004,1.03772335625047e-003
4.07380277804111e+002	8.53021720715294e-004,1.04273379886578e-003
4.16869383470333e+002	8.76659108460236e-004,1.04723490832467e-003
4.26579518801591e+002	9.00488759665784e-004,1.05121526098101e-003
4.36515832240164e+002	9.24487473500105e-004,1.05466465561794e-003
4.46683592150961e+002	9.48631358159161e-004,1.05757417619054e-003
4.57088189614873e+002	9.72895922602387e-004,1.05993624736093e-003
4.67735141287196e+002	9.97256173489052e-004,1.06174468219029e-003
4.78630092322636e+002	1.02168671652390e-003,1.06299472143447e-003
4.89778819368444e+002	1.04616186135479e-003,1.06368306398173e-003
5.01187233627270e+002	1.07065572911142e-003,1.06380788807186e-003
5.12861383991362e+002	1.09514236163372e-003,1.06336886304372e-003
5.24807460249770e+002	1.11959583141289e-003,1.06236715147028e-003
5.37031796370250e+002	1.14399035125685e-003,1.06080540165573e-003
5.49540873857622e+002	1.16830038269613e-003,1.05868773058453e-003
5.62341325190346e+002	1.19250074216573e-003,1.05601969752623e-003
5.75439937337154e+002	1.21656670403237e-003,1.05280826860990e-003
5.88843655355586e+002	1.24047409958451e-003,1.04906177278588e-003
6.02559586074355e+002	1.26419941116319e-003,1.04478984968888e-003
6.16595001861479e+002	1.28771986068369e-003,1.04000339000272e-003
6.30957344480190e+002	1.31101349188001e-003,1.03471446900289e-003
6.45654229034652e+002	1.33405924569375e-003,1.02893627401652e-003
6.60693448007592e+002	1.35683702832492e-003,1.02268302658973e-003
6.76082975391978e+002	1.37932777156211e-003,1.01596990018964e-003
6.91830970918933e+002	1.40151348511127e-003,1.00881293429178e-003
7.07945784384134e+002	1.42337730074457e-003,1.00122894571363e-003
7.24435960074986e+002	1.44490350819083e-003,9.93235438052114e-004
7.41310241300914e+002	1.46607758278589e-003,9.84850510067447e-004
7.58577575029180e+002	1.48688620499286e-003,9.76092763829085e-004
7.76247116628688e+002	1.50731727198755e-003,9.66981213402534e-004
7.94328234724277e+002	1.52735990158167e-003,9.57535194809729e-004
8.12830516164095e+002	1.54700442882619e-003,9.47774277942130e-004
8.31763771102666e+002	1.56624239569685e-003,9.37718181045896e-004
8.51138038202372e+002	1.58506653431475e-003,9.27386688334025e-004
8.70963589956076e+002	1.60347074419590e-003,9.16799571212662e-004
8.91250938133741e+002	1.62145006405493e-003,9.05976513539190e-004
9.12010839355905e+002	1.63900063871022e-003,8.94937041259663e-004
9.33254300796986e+002	1.65611968165064e-003,8.83700456703744e-004
9.54992586021431e+002	1.67280543382887e-003,8.72285777747658e-004
9.77237220955805e+002	1.68905711924293e-003,8.60711681990823e-004
9.99999999999994e+002	1.70487489785751e-003,8.48996456030396e-004
1.02329299228075e+003	1.72025981640039e-003,8.37157949860777e-004
1.04712854805089e+003	1.73521375754749e-003,8.25213536372608e-004
1.07151930523760e+003	1.74973938798401e-003,8.13180075878306e-004
1.09647819614318e+003	1.76384010579941e-003,8.01073885548922e-004
1.12201845430196e+003	1.77751998764125e-003,7.88910713610319e-004
1.14815362149688e+003	1.79078373601875e-003,7.76705718115137e-004
1.17489755493952e+003	1.80363662711050e-003,7.64473450080799e-004
1.20226443461741e+003	1.81608445939499e-003,7.52227840762659e-004
1.23026877081237e+003	1.82813350338560e-003,7.39982192815039e-004
1.25892541179416e+003	1.83979045271599e-003,7.27749175081118e-004
1.28824955169313e+003	1.85106237678691e-003,7.15540820744918e-004
1.31825673855640e+003	1.86195667515158e-003,7.03368528574810e-004
1.34896288259165e+003	1.87248103378486e-003,6.91243066987466e-004
1.38038426460288e+003	1.88264338335144e-003,6.79174580663704e-004
1.41253754462275e+003	1.89245185956001e-003,6.67172599452826e-004
1.44543977074592e+003	1.90191476566455e-003,6.55246049309385e-004
1.47910838816820e+003	1.91104053715036e-003,6.43403265015542e-004
1.51356124843620e+003	1.91983770862093e-003,6.31652004452872e-004
1.54881661891247e+003	1.92831488288284e-003,6.19999464199373e-004
1.58489319246110e+003	1.93648070220888e-003,6.08452296240225e-004
1.62181009735892e+003	1.94434382174486e-003,5.97016625594220e-004
1.65958690743755e+003	1.95191288501312e-003,5.85698068671525e-004
1.69824365246173e+003	1.95919650145468e-003,5.74501752192422e-004
1.73780082874936e+003	1.96620322594345e-003,5.63432332510472e-004
1.77827941003891e+003	1.97294154019820e-003,5.52494015197322e-004
1.81970085860997e+003	1.97941983601291e-003,5.41690574759751e-004
1.86208713666286e+003	1.98564640022115e-003,5.31025374372457e-004
1.90546071796323e+003	1.99162940130784e-003,5.20501385522596e-004
1.94984459975803e+003	1.99737687757913e-003,5.10121207473917e-004
1.99526231496887e+003	2.00289672680090e-003,4.99887086469491e-004
2.04173794466952e+003	2.00819669721593e-003,4.89800934602705e-004
2.08929613085403e+003	2.01328437985074e-003,4.79864348295940e-004
2.13796208950222e+003	2.01816720202449e-003,4.70078626335544e-004
2.18776162394954e+003	2.02285242197423e-003,4.60444787420189e-004
2.23872113856832e+003	2.02734712451317e-003,4.50963587187437e-004
2.29086765276776e+003	2.03165821764159e-003,4.41635534690417e-004
2.34422881531991e+003	2.03579243003271e-003,4.32460908303005e-004
2.39883291901947e+003	2.03975630931960e-003,4.23439771037639e-004
2.45470891568501e+003	2.04355622111225e-003,4.14571985265184e-004
2.51188643150956e+003	2.04719834867761e-003,4.05857226830858e-004
2.57039578276885e+003	2.05068869321916e-003,3.97294998564390e-004
2.63026799189536e+003	2.05403307469596e-003,3.88884643186167e-004
2.69153480392690e+003	2.05723713312488e-003,3.80625355614348e-004
2.75422870333815e+003	2.06030633031327e-003,3.72516194680581e-004
2.81838293126443e+003	2.06324595197279e-003,3.64556094264411e-004
2.88403150312659e+003	2.06606111016851e-003,3.56743873858331e-004
2.95120922666636e+003	2.06875674606075e-003,3.49078248577226e-004
3.01995172040199e+003	2.07133763290014e-003,3.41557838627196e-004
3.09029543251357e+003	2.07380837923978e-003,3.34181178249960e-004
3.16227766016836e+003	2.07617343233071e-003,3.26946724159807e-004
3.23593656929626e+003	2.07843708167027e-003,3.19852863490741e-004
3.31131121482589e+003	2.08060346267518e-003,3.12897921272011e-004
3.38844156139200e+003	2.08267656045367e-003,3.06080167450278e-004
3.46736850452529e+003	2.08466021365344e-003,2.99397823477096e-004
3.54813389233573e+003	2.08655811836442e-003,2.92849068480176e-004
3.63078054770099e+003	2.08837383205711e-003,2.86432045036878e-004
3.71535229097170e+003	2.09011077753956e-003,2.80144864568240e-004
3.80189396320558e+003	2.09177224691741e-003,2.73985612371413e-004
3.89045144994278e+003	2.09336140554350e-003,2.67952352308279e-004
3.98107170553494e+003	2.09488129594467e-003,2.62043131167318e-004
4.07380277804110e+003	2.09633484171509e-003,2.56255982715575e-004
4.16869383470332e+003	2.09772485136659e-003,2.50588931457037e-004
4.26579518801589e+003	2.09905402212777e-003,2.45039996113139e-004
4.36515832240162e+003	2.10032494368460e-003,2.39607192840630e-004
4.46683592150960e+003	2.10154010185649e-003,2.34288538201514e-004
4.57088189614871e+003	2.10270188220248e-003,2.29082051899126e-004
4.67735141287194e+003	2.10381257355310e-003,2.23985759293933e-004
4.78630092322634e+003	2.10487437146435e-003,2.18997693712009e-004
4.89778819368442e+003	2.10588938159076e-003,2.14115898558585e-004
5.01187233627268e+003	2.10685962297518e-003,2.09338429248518e-004
5.12861383991361e+003	2.10778703125360e-003,2.04663354964994e-004
5.24807460249768e+003	2.10867346177352e-003,2.00088760257201e-004
5.37031796370248e+003	2.10952069262539e-003,1.95612746487156e-004
5.49540873857620e+003	2.11033042758628e-003,1.91233433135482e-004
5.62341325190344e+003	2.11110429897607e-003,1.86948958975261e-004
5.75439937337152e+003	2.11184387042620e-003,1.82757483122660e-004
5.88843655355584e+003	2.11255063956164e-003,1.78657185972752e-004
6.02559586074353e+003	2.11322604059676e-003,1.74646270028102e-004
6.16595001861477e+003	2.11387144684615e-003,1.70722960627690e-004
6.30957344480188e+003	2.11448817315164e-003,1.66885506583004e-004
6.45654229034650e+003	2.11507747822669e-003,1.63132180727938e-004
6.60693448007590e+003	2.11564056691985e-003,1.59461280388605e-004
6.76082975391976e+003	2.11617859239863e-003,1.55871127778992e-004
6.91830970918931e+003	2.11669265825578e-003,1.52360070327782e-004
7.07945784384132e+003	2.11718382053945e-003,1.48926480941619e-004
7.24435960074984e+003	2.11765308970925e-003,1.45568758209557e-004
7.41310241300911e+003	2.11810143252004e-003,1.42285326553321e-004
7.58577575029177e+003	2.11852977383536e-003,1.39074636327468e-004
7.76247116628685e+003	2.11893899837243e-003,1.35935163873654e-004
7.94328234724275e+003	2.11932995238075e-003,1.32865411532508e-004
8.12830516164092e+003	2.11970344525612e-003,1.29863907616823e-004
8.31763771102664e+003	2.12006025109219e-003,1.26929206349148e-004
8.51138038202369e+003	2.12040111017144e-003,1.24059887766910e-004
8.70963589956073e+003	2.12072673039745e-003,1.21254557597967e-004
8.91250938133738e+003	2.12103778867047e-003,1.18511847109183e-004
9.12010839355902e+003	2.12133493220819e-003,1.15830412930478e-004
9.33254300796983e+003	2.12161877981346e-003,1.13208936856775e-004
9.54992586021428e+003	2.12188992309094e-003,1.10646125629920e-004
9.77237220955802e+003	2.12214892761428e-003,1.08140710702585e-004
9.99999999999991e+003	2.12239633404583e-003,1.05691447986087e-004
1.02329299228075e+004	2.12263265921037e-003,1.03297117583697e-004
